
T4454 000:273 SEGGER J-Link V5.12f Log File (0000ms, 0262ms total)
T4454 000:273 DLL Compiled: May 17 2016 16:03:35 (0000ms, 0262ms total)
T4454 000:273 Logging started @ 2016-08-30 12:02 (0000ms, 0262ms total)
T4454 000:273 JLINK_SetWarnOutHandler(...) (0000ms, 0262ms total)
T4454 000:273 JLINK_OpenEx(...)
Firmware: J-Link Lite-Cortex-M V8 compiled Aug 20 2015 17:57:19
Hardware: V8.00
S/N: 518111683
Feature(s): GDB  returns O.K. (0262ms, 0524ms total)
T4454 000:535 JLINK_SetErrorOutHandler(...) (0000ms, 0524ms total)
T4454 000:535 JLINK_ExecCommand("ProjectFile = "D:\Downloads\nRF5_SDK_11.0.0_89a8197\examples\ble_peripheral\ble_app_uart\pca10028\s130\arm5_no_packs\JLinkSettings.ini"", ...)  returns 0x00 (0001ms, 0525ms total)
T4454 000:536 JLINK_ExecCommand("Device = nRF51422_xxAC", ...)Device "NRF51422_XXAC" selected.  returns 0x00 (0001ms, 0526ms total)
T4454 000:537 JLINK_ExecCommand("DisableConnectionTimeout", ...)  returns 0x01 (0000ms, 0526ms total)
T4454 000:537 JLINK_GetHardwareVersion()  returns 0x13880 (0000ms, 0526ms total)
T4454 000:537 JLINK_GetDLLVersion()  returns 51206 (0000ms, 0526ms total)
T4454 000:537 JLINK_GetFirmwareString(...) (0000ms, 0526ms total)
T4454 000:537 JLINK_GetDLLVersion()  returns 51206 (0000ms, 0526ms total)
T4454 000:537 JLINK_GetCompileDateTime() (0000ms, 0526ms total)
T4454 000:537 JLINK_GetFirmwareString(...) (0000ms, 0526ms total)
T4454 000:537 JLINK_GetHardwareVersion()  returns 0x13880 (0000ms, 0526ms total)
T4454 000:537 JLINK_TIF_Select(JLINKARM_TIF_SWD)  returns 0x00 (0002ms, 0528ms total)
T4454 000:539 JLINK_SetSpeed(5000) (0000ms, 0528ms total)
T4454 000:539 JLINK_GetId() >0x108 TIF>Found SWD-DP with ID 0x0BB11477 >0x0D TIF> >0x28 TIF> >0x0D TIF> >0x28 TIF> >0x0D TIF> >0x28 TIF> >0x0D TIF> >0x28 TIF> >0x35 TIF> >0x0D TIF> >0x28 TIF> >0x0D TIF> >0x28 TIF> >0x35 TIF> >0x35 TIF> >0x35 TIF> >0x0D TIF> >0x28 TIF> >0x0D TIF> >0x28 TIF> >0x0D TIF> >0x28 TIF> >0x35 TIF> >0x35 TIF> >0x0D TIF> >0x28 TIF> >0x35 TIF> >0x35 TIF>Found Cortex-M0 r0p0, Little endian. -- CPU_ReadMem(4 bytes @ 0xE000EDF0) -- CPU_ReadMem(4 bytes @ 0xE0002000)
FPUnit: 4 code (BP) slots and 0 literal slots -- CPU_ReadMem(4 bytes @ 0xE000EDFC) -- CPU_ReadMem(4 bytes @ 0xE0001000) -- CPU_WriteMem(4 bytes @ 0xE0001000)CoreSight components:ROMTbl 0 @ F0000000 -- CPU_ReadMem(16 bytes @ 0xF0000000) -- CPU_ReadMem(16 bytes @ 0xE00FFFF0) -- CPU_ReadMem(16 bytes @ 0xE00FFFE0)ROMTbl 0 [0]: F00FF000, CID: B105100D, PID: 000BB471 ROM TableROMTbl 1 @ E00FF000 -- CPU_ReadMem(16 bytes @ 0xE00FF000) -- CPU_ReadMem(16 bytes @ 0xE000EFF0) -- CPU_ReadMem(16 bytes @ 0xE000EFE0)
ROMTbl 1 [0]: FFF0F000, CID: B105E00D, PID: 000BB008 SCS -- CPU_ReadMem(16 bytes @ 0xE0001FF0) -- CPU_ReadMem(16 bytes @ 0xE0001FE0)ROMTbl 1 [1]: FFF02000, CID: B105E00D, PID: 000BB00A DWT -- CPU_ReadMem(16 bytes @ 0xE0002FF0) -- CPU_ReadMem(16 bytes @ 0xE0002FE0)ROMTbl 1 [2]: FFF03000, CID: B105E00D, PID: 000BB00B FPB -- CPU_ReadMem(16 bytes @ 0xF0002FF0) -- CPU_ReadMem(16 bytes @ 0xF0002FE0)ROMTbl 0 [1]: 00002000, CID: B105900D, PID: 000BB9A3 ??? >0x35 TIF>  returns 0x0BB11477 (0033ms, 0561ms total)
T4454 000:572 JLINK_GetDLLVersion()  returns 51206 (0000ms, 0561ms total)
T4454 000:572 JLINK_CORE_GetFound()  returns 0x60000FF (0000ms, 0561ms total)
T4454 000:572 JLINK_GetDebugInfo(0x100) -- Value=0xF0000000  returns 0x00 (0000ms, 0561ms total)
T4454 000:572 JLINK_GetDebugInfo(0x100) -- Value=0xF0000000  returns 0x00 (0000ms, 0561ms total)
T4454 000:572 JLINK_GetDebugInfo(0x101) -- Value=0x00000000  returns 0x00 (0000ms, 0561ms total)
T4454 000:572 JLINK_ReadMem (0xE0041FF0, 0x0010 Bytes, ...) -- CPU is running -- CPU_ReadMem(16 bytes @ 0xE0041FF0) - Data: 00 00 00 00 00 00 00 00 00 00 00 00 00 00 00 00  returns 0x00 (0001ms, 0562ms total)
T4454 000:573 JLINK_GetDebugInfo(0x102) -- Value=0x00000000  returns 0x00 (0000ms, 0562ms total)
T4454 000:573 JLINK_GetDebugInfo(0x103) -- Value=0x00000000  returns 0x00 (0000ms, 0562ms total)
T4454 000:573 JLINK_ReadMem (0xE0040FF0, 0x0010 Bytes, ...) -- CPU is running -- CPU_ReadMem(16 bytes @ 0xE0040FF0) - Data: 00 00 00 00 00 00 00 00 00 00 00 00 00 00 00 00  returns 0x00 (0001ms, 0563ms total)
T4454 000:574 JLINK_GetDebugInfo(0x104) -- Value=0xE0000000  returns 0x00 (0000ms, 0563ms total)
T4454 000:574 JLINK_GetDebugInfo(0x105) -- Value=0xE0001000  returns 0x00 (0000ms, 0563ms total)
T4454 000:574 JLINK_GetDebugInfo(0x106) -- Value=0xE0002000  returns 0x00 (0000ms, 0563ms total)
T4454 000:574 JLINK_GetDebugInfo(0x107) -- Value=0xE000E000  returns 0x00 (0000ms, 0563ms total)
T4454 000:574 JLINK_GetDebugInfo(0x10C) -- Value=0xE000EDF0  returns 0x00 (0000ms, 0563ms total)
T4454 000:574 JLINK_ReadMemU32(0xE000ED00, 0x0001 Items, ...) -- CPU is running -- CPU_ReadMem(4 bytes @ 0xE000ED00) - Data: 00 C2 0C 41  returns 0x01 (0000ms, 0563ms total)
T4454 000:574 JLINK_SetResetType(JLINKARM_RESET_TYPE_NORMAL)  returns JLINKARM_RESET_TYPE_NORMAL (0000ms, 0563ms total)
T4454 000:574 JLINK_Reset() -- CPU is running -- CPU_WriteMem(4 bytes @ 0xE000EDF0) -- CPU is running -- CPU_WriteMem(4 bytes @ 0xE000EDFC) >0x35 TIF> -- CPU is running -- CPU_WriteMem(4 bytes @ 0xE000ED0C) -- CPU is running -- CPU_ReadMem(4 bytes @ 0xE000EDF0) -- CPU is running -- CPU_ReadMem(4 bytes @ 0xE000EDF0) -- CPU is running -- CPU_WriteMem(4 bytes @ 0xE000EDF0) -- CPU is running -- CPU_WriteMem(4 bytes @ 0xE000EDFC) -- CPU is running -- CPU_ReadMem(4 bytes @ 0xE000EDF0)
 -- CPU_WriteMem(4 bytes @ 0xE0002000) -- CPU_ReadMem(4 bytes @ 0xE000EDFC) -- CPU_ReadMem(4 bytes @ 0xE0001000) -- CPU_WriteMem(4 bytes @ 0xE0001000) (0026ms, 0589ms total)
T4454 000:600 JLINK_ReadReg(R15 (PC))  returns 0x000006D0 (0000ms, 0589ms total)
T4454 000:600 JLINK_ReadReg(XPSR)  returns 0xC1000000 (0000ms, 0589ms total)
T4454 000:600 JLINK_Halt()  returns 0x00 (0000ms, 0589ms total)
T4454 000:600 JLINK_IsHalted()  returns TRUE (0000ms, 0589ms total)
T4454 000:600 JLINK_ReadMemU32(0xE000EDF0, 0x0001 Items, ...) -- CPU_ReadMem(4 bytes @ 0xE000EDF0) - Data: 03 00 03 00  returns 0x01 (0001ms, 0590ms total)
T4454 000:601 JLINK_WriteU32(0xE000EDF0, 0xA05F0003) -- CPU_WriteMem(4 bytes @ 0xE000EDF0)  returns 0x00 (0001ms, 0591ms total)
T4454 000:602 JLINK_WriteU32(0xE000EDFC, 0x01000000) -- CPU_WriteMem(4 bytes @ 0xE000EDFC)  returns 0x00 (0001ms, 0592ms total)
T4454 000:603 JLINK_GetHWStatus(...)  returns 0x00 (0001ms, 0593ms total)
T4454 000:604 JLINK_GetNumBPUnits(Type = 0xFFFFFF00)  returns 0x04 (0000ms, 0593ms total)
T4454 000:604 JLINK_GetNumBPUnits(Type = 0xF0)  returns 0x2000 (0000ms, 0593ms total)
T4454 000:604 JLINK_GetNumWPUnits()  returns 0x02 (0000ms, 0593ms total)
T4454 000:604 JLINK_GetSpeed()  returns 0x7D0 (0000ms, 0593ms total)
T4454 000:604 JLINK_ReadMemU32(0xE000E004, 0x0001 Items, ...) -- CPU_ReadMem(4 bytes @ 0xE000E004) - Data: 00 00 00 00  returns 0x01 (0000ms, 0593ms total)
T4454 000:604 JLINK_ReadReg(R15 (PC))  returns 0x000006D0 (0001ms, 0594ms total)
T4454 000:605 JLINK_ReadReg(XPSR)  returns 0xC1000000 (0000ms, 0594ms total)
T4454 000:691 JLINK_SetResetType(JLINKARM_RESET_TYPE_NORMAL)  returns JLINKARM_RESET_TYPE_NORMAL (0000ms, 0594ms total)
T4454 000:691 JLINK_Reset() -- CPU_WriteMem(4 bytes @ 0xE000EDF0) -- CPU_WriteMem(4 bytes @ 0xE000EDFC) >0x35 TIF> -- CPU_WriteMem(4 bytes @ 0xE000ED0C) -- CPU_ReadMem(4 bytes @ 0xE000EDF0) -- CPU_ReadMem(4 bytes @ 0xE000EDF0) -- CPU_WriteMem(4 bytes @ 0xE000EDF0) -- CPU_WriteMem(4 bytes @ 0xE000EDFC) -- CPU is running -- CPU_ReadMem(4 bytes @ 0xE000EDF0) -- CPU_WriteMem(4 bytes @ 0xE0002000) -- CPU_ReadMem(4 bytes @ 0xE000EDFC) -- CPU_ReadMem(4 bytes @ 0xE0001000) -- CPU_WriteMem(4 bytes @ 0xE0001000)
 (0025ms, 0619ms total)
T4454 000:716 JLINK_ReadReg(R15 (PC))  returns 0x000006D0 (0000ms, 0619ms total)
T4454 000:716 JLINK_ReadReg(XPSR)  returns 0xC1000000 (0000ms, 0619ms total)
T4454 000:716 JLINK_ReadMem (0x000006D0, 0x003C Bytes, ...) -- CPU_ReadMem(128 bytes @ 0x000006C0) -- Updating C cache (128 bytes @ 0x000006C0) -- Read from C cache (60 bytes @ 0x000006D0) - Data: 16 49 17 4C 24 68 8C 42 0B D1 16 4B 1B 68 99 42 ...  returns 0x00 (0002ms, 0621ms total)
T4454 001:871 JLINK_ReadMem (0x0001DBD2, 0x0002 Bytes, ...) -- CPU_ReadMem(64 bytes @ 0x0001DBC0) -- Updating C cache (64 bytes @ 0x0001DBC0) -- Read from C cache (2 bytes @ 0x0001DBD2) - Data: 44 60  returns 0x00 (0001ms, 0622ms total)
T4454 001:872 JLINK_ReadMem (0x0001DBD4, 0x002C Bytes, ...) -- Read from C cache (44 bytes @ 0x0001DBD4) - Data: FF F7 AE FA 13 A0 FD F7 11 FF 03 20 FE F7 B8 FF ...  returns 0x00 (0000ms, 0622ms total)
T4454 001:872 JLINK_ReadMem (0x0001DC00, 0x0010 Bytes, ...) -- CPU_ReadMem(64 bytes @ 0x0001DC00) -- Updating C cache (64 bytes @ 0x0001DC00) -- Read from C cache (16 bytes @ 0x0001DC00) - Data: 51 55 49 4B 20 53 65 6E 73 6F 72 00 8B E2 01 00  returns 0x00 (0002ms, 0624ms total)
T2DAC 002:122 JLINK_SetBPEx(Addr = 0x0001DAB8, Type = 0xFFFFFFF2)  returns 0x00000001 (0000ms, 0624ms total)
T2DAC 002:122 JLINK_SetBPEx(Addr = 0x0001DBD2, Type = 0xFFFFFFF2)  returns 0x00000002 (0000ms, 0624ms total)
T2DAC 002:122 JLINK_Go() -- CPU_WriteMem(4 bytes @ 0xE0002000) -- CPU_WriteMem(4 bytes @ 0xE0002000) -- CPU_ReadMem(4 bytes @ 0xE0001000) -- CPU_WriteMem(4 bytes @ 0xE0001000) -- CPU_WriteMem(4 bytes @ 0xE0002008) -- CPU_WriteMem(4 bytes @ 0xE000200C) -- CPU_WriteMem(4 bytes @ 0xE0002010) -- CPU_WriteMem(4 bytes @ 0xE0002014) -- CPU_WriteMem(4 bytes @ 0xE0001004) (0008ms, 0632ms total)
T2DAC 002:231 JLINK_IsHalted()  returns TRUE (0005ms, 0637ms total)
T2DAC 002:236 JLINK_Halt()  returns 0x00 (0000ms, 0632ms total)
T2DAC 002:236 JLINK_IsHalted()  returns TRUE (0000ms, 0632ms total)
T2DAC 002:236 JLINK_IsHalted()  returns TRUE (0000ms, 0632ms total)
T2DAC 002:236 JLINK_IsHalted()  returns TRUE (0000ms, 0632ms total)
T2DAC 002:236 JLINK_ReadReg(R15 (PC))  returns 0x0001DAB8 (0000ms, 0632ms total)
T2DAC 002:236 JLINK_ReadReg(XPSR)  returns 0x61000000 (0000ms, 0632ms total)
T2DAC 002:236 JLINK_ClrBPEx(BPHandle = 0x00000001)  returns 0x00 (0000ms, 0632ms total)
T2DAC 002:236 JLINK_ClrBPEx(BPHandle = 0x00000002)  returns 0x00 (0000ms, 0632ms total)
T2DAC 002:236 JLINK_ReadMemU32(0xE000ED30, 0x0001 Items, ...) -- CPU_ReadMem(4 bytes @ 0xE000ED30) - Data: 02 00 00 00  returns 0x01 (0001ms, 0633ms total)
T2DAC 002:237 JLINK_ReadMemU32(0xE0001028, 0x0001 Items, ...) -- CPU_ReadMem(4 bytes @ 0xE0001028) - Data: 00 00 00 00  returns 0x01 (0001ms, 0634ms total)
T2DAC 002:238 JLINK_ReadMemU32(0xE0001038, 0x0001 Items, ...) -- CPU_ReadMem(4 bytes @ 0xE0001038) - Data: 00 00 00 00  returns 0x01 (0001ms, 0635ms total)
T2DAC 002:239 JLINK_ReadReg(R0)  returns 0x0001DAB9 (0000ms, 0635ms total)
T2DAC 002:239 JLINK_ReadReg(R1)  returns 0x20003178 (0000ms, 0635ms total)
T2DAC 002:239 JLINK_ReadReg(R2)  returns 0x00000000 (0000ms, 0635ms total)
T2DAC 002:239 JLINK_ReadReg(R3)  returns 0x0001BA79 (0000ms, 0635ms total)
T2DAC 002:239 JLINK_ReadReg(R4)  returns 0x0001F0A4 (0000ms, 0635ms total)
T2DAC 002:239 JLINK_ReadReg(R5)  returns 0x00000001 (0000ms, 0635ms total)
T2DAC 002:239 JLINK_ReadReg(R6)  returns 0x0001F0A4 (0000ms, 0635ms total)
T2DAC 002:239 JLINK_ReadReg(R7)  returns 0xFFFFFFFF (0000ms, 0635ms total)
T2DAC 002:239 JLINK_ReadReg(R8)  returns 0xFFFFFFFF (0000ms, 0635ms total)
T2DAC 002:239 JLINK_ReadReg(R9)  returns 0xFFFFFFFF (0000ms, 0635ms total)
T2DAC 002:239 JLINK_ReadReg(R10)  returns 0xFFFFFFFF (0000ms, 0635ms total)
T2DAC 002:239 JLINK_ReadReg(R11)  returns 0xFFFFFFFF (0000ms, 0635ms total)
T2DAC 002:239 JLINK_ReadReg(R12)  returns 0xFFFFFFFF (0000ms, 0635ms total)
T2DAC 002:239 JLINK_ReadReg(R13 (SP))  returns 0x20003178 (0000ms, 0635ms total)
T2DAC 002:239 JLINK_ReadReg(R14)  returns 0x0001B5A9 (0000ms, 0635ms total)
T2DAC 002:239 JLINK_ReadReg(R15 (PC))  returns 0x0001DAB8 (0000ms, 0635ms total)
T2DAC 002:239 JLINK_ReadReg(XPSR)  returns 0x61000000 (0000ms, 0635ms total)
T2DAC 002:239 JLINK_ReadReg(MSP)  returns 0x20003178 (0000ms, 0635ms total)
T2DAC 002:239 JLINK_ReadReg(PSP)  returns 0xFFFFFFFC (0000ms, 0635ms total)
T2DAC 002:239 JLINK_ReadReg(CFBP)  returns 0x00000000 (0000ms, 0635ms total)
T4454 002:239 JLINK_ReadMem (0x00000000, 0x0004 Bytes, ...) -- CPU_ReadMem(64 bytes @ 0x00000000) -- Updating C cache (64 bytes @ 0x00000000) -- Read from C cache (4 bytes @ 0x00000000) - Data: C0 07 00 00  returns 0x00 (0002ms, 0637ms total)
T4454 002:249 JLINK_ReadMem (0x0001D9B8, 0x003C Bytes, ...) -- CPU_ReadMem(128 bytes @ 0x0001D980) -- Updating C cache (128 bytes @ 0x0001D980) -- Read from C cache (60 bytes @ 0x0001D9B8) - Data: 91 42 C5 D1 21 46 64 1E E4 B2 00 29 BB D1 05 49 ...  returns 0x00 (0002ms, 0639ms total)
T4454 002:251 JLINK_ReadMem (0x0001D9F4, 0x003C Bytes, ...) -- CPU_ReadMem(64 bytes @ 0x0001DA00) -- Updating C cache (64 bytes @ 0x0001DA00) -- Read from C cache (60 bytes @ 0x0001D9F4) - Data: 2E 48 F9 00 80 68 0D 18 43 E0 00 2C 02 D0 20 46 ...  returns 0x00 (0002ms, 0641ms total)
T4454 002:253 JLINK_ReadMem (0x0001DA30, 0x003C Bytes, ...) -- CPU_ReadMem(64 bytes @ 0x0001DA40) -- Updating C cache (64 bytes @ 0x0001DA40) -- Read from C cache (60 bytes @ 0x0001DA30) - Data: 42 60 CA 68 82 60 0A 69 C2 60 49 69 81 61 1C 49 ...  returns 0x00 (0001ms, 0642ms total)
T4454 002:254 JLINK_ReadMem (0x0001DA6C, 0x003C Bytes, ...) -- CPU_ReadMem(64 bytes @ 0x0001DA80) -- Updating C cache (64 bytes @ 0x0001DA80) -- Read from C cache (60 bytes @ 0x0001DA6C) - Data: 8A 42 02 D9 51 1A 01 60 00 E0 06 60 46 60 01 21 ...  returns 0x00 (0002ms, 0644ms total)
T4454 002:256 JLINK_ReadMem (0x0001DAA8, 0x003C Bytes, ...) -- CPU_ReadMem(64 bytes @ 0x0001DAC0) -- Updating C cache (64 bytes @ 0x0001DAC0) -- Read from C cache (60 bytes @ 0x0001DAA8) - Data: F8 BD 00 20 F8 BD 00 00 7C 21 00 20 FF FF 7F 00 ...  returns 0x00 (0001ms, 0645ms total)
T2DAC 006:563 JLINK_SetBPEx(Addr = 0x0001DBD2, Type = 0xFFFFFFF2)  returns 0x00000003 (0000ms, 0645ms total)
T2DAC 006:563 JLINK_Go() -- CPU_WriteMem(4 bytes @ 0xE0002000) -- CPU_ReadMem(4 bytes @ 0xE0001000) -- CPU_WriteMem(4 bytes @ 0xE0001000) -- CPU_WriteMem(4 bytes @ 0xE0002008) -- CPU_WriteMem(4 bytes @ 0xE000200C) (0005ms, 0650ms total)
T2DAC 006:668 JLINK_IsHalted()  returns FALSE (0001ms, 0651ms total)
T2DAC 006:769 JLINK_IsHalted()  returns FALSE (0000ms, 0650ms total)
T2DAC 006:870 JLINK_IsHalted()  returns TRUE (0005ms, 0655ms total)
T2DAC 006:875 JLINK_Halt()  returns 0x00 (0000ms, 0650ms total)
T2DAC 006:875 JLINK_IsHalted()  returns TRUE (0000ms, 0650ms total)
T2DAC 006:875 JLINK_IsHalted()  returns TRUE (0000ms, 0650ms total)
T2DAC 006:875 JLINK_IsHalted()  returns TRUE (0000ms, 0650ms total)
T2DAC 006:875 JLINK_ReadReg(R15 (PC))  returns 0x0001DBD2 (0000ms, 0650ms total)
T2DAC 006:875 JLINK_ReadReg(XPSR)  returns 0x61000000 (0000ms, 0650ms total)
T2DAC 006:875 JLINK_ClrBPEx(BPHandle = 0x00000003)  returns 0x00 (0000ms, 0650ms total)
T2DAC 006:875 JLINK_ReadMemU32(0xE000ED30, 0x0001 Items, ...) -- CPU_ReadMem(4 bytes @ 0xE000ED30) - Data: 02 00 00 00  returns 0x01 (0001ms, 0651ms total)
T2DAC 006:876 JLINK_ReadMemU32(0xE0001028, 0x0001 Items, ...) -- CPU_ReadMem(4 bytes @ 0xE0001028) - Data: 00 00 00 00  returns 0x01 (0000ms, 0651ms total)
T2DAC 006:876 JLINK_ReadMemU32(0xE0001038, 0x0001 Items, ...) -- CPU_ReadMem(4 bytes @ 0xE0001038) - Data: 00 00 00 00  returns 0x01 (0000ms, 0651ms total)
T2DAC 006:876 JLINK_ReadReg(R0)  returns 0x4000C500 (0000ms, 0651ms total)
T2DAC 006:876 JLINK_ReadReg(R1)  returns 0x00000000 (0000ms, 0651ms total)
T2DAC 006:876 JLINK_ReadReg(R2)  returns 0x0001EB9D (0000ms, 0651ms total)
T2DAC 006:876 JLINK_ReadReg(R3)  returns 0x00000000 (0000ms, 0651ms total)
T2DAC 006:876 JLINK_ReadReg(R4)  returns 0x00000000 (0000ms, 0651ms total)
T2DAC 006:878 JLINK_ReadReg(R5)  returns 0x00000001 (0000ms, 0653ms total)
T2DAC 006:878 JLINK_ReadReg(R6)  returns 0x0001F0A4 (0000ms, 0653ms total)
T2DAC 006:878 JLINK_ReadReg(R7)  returns 0xFFFFFFFF (0000ms, 0653ms total)
T2DAC 006:878 JLINK_ReadReg(R8)  returns 0xFFFFFFFF (0000ms, 0653ms total)
T2DAC 006:878 JLINK_ReadReg(R9)  returns 0xFFFFFFFF (0000ms, 0653ms total)
T2DAC 006:878 JLINK_ReadReg(R10)  returns 0xFFFFFFFF (0000ms, 0653ms total)
T2DAC 006:878 JLINK_ReadReg(R11)  returns 0xFFFFFFFF (0000ms, 0653ms total)
T2DAC 006:878 JLINK_ReadReg(R12)  returns 0xFFFFFFFF (0000ms, 0653ms total)
T2DAC 006:878 JLINK_ReadReg(R13 (SP))  returns 0x200030E0 (0000ms, 0653ms total)
T2DAC 006:878 JLINK_ReadReg(R14)  returns 0x0001CD83 (0000ms, 0653ms total)
T2DAC 006:878 JLINK_ReadReg(R15 (PC))  returns 0x0001DBD2 (0000ms, 0653ms total)
T2DAC 006:878 JLINK_ReadReg(XPSR)  returns 0x61000000 (0000ms, 0653ms total)
T2DAC 006:878 JLINK_ReadReg(MSP)  returns 0x200030E0 (0000ms, 0653ms total)
T2DAC 006:878 JLINK_ReadReg(PSP)  returns 0xFFFFFFFC (0000ms, 0653ms total)
T2DAC 006:878 JLINK_ReadReg(CFBP)  returns 0x00000000 (0000ms, 0653ms total)
T4454 006:878 JLINK_ReadMem (0x00000000, 0x0004 Bytes, ...) -- CPU_ReadMem(64 bytes @ 0x00000000) -- Updating C cache (64 bytes @ 0x00000000) -- Read from C cache (4 bytes @ 0x00000000) - Data: C0 07 00 00  returns 0x00 (0002ms, 0655ms total)
T4454 006:884 JLINK_ReadMem (0x0001DBD0, 0x0030 Bytes, ...) -- CPU_ReadMem(64 bytes @ 0x0001DBC0) -- Updating C cache (64 bytes @ 0x0001DBC0) -- Read from C cache (48 bytes @ 0x0001DBD0) - Data: 14 48 44 60 FF F7 AE FA 13 A0 FD F7 11 FF 03 20 ...  returns 0x00 (0001ms, 0656ms total)
T4454 006:885 JLINK_ReadMem (0x0001DC00, 0x000C Bytes, ...) -- CPU_ReadMem(64 bytes @ 0x0001DC00) -- Updating C cache (64 bytes @ 0x0001DC00) -- Read from C cache (12 bytes @ 0x0001DC00) - Data: 51 55 49 4B 20 53 65 6E 73 6F 72 00  returns 0x00 (0001ms, 0657ms total)
T2DAC 012:012 JLINK_Step() -- Read from C cache (2 bytes @ 0x0001DBD2) -- CPU_ReadMem(4 bytes @ 0xE000ED18) -- CPU_WriteMem(4 bytes @ 0xE000ED18) -- CPU_ReadMem(4 bytes @ 0xE000ED18) -- CPU_WriteMem(4 bytes @ 0xE000ED18) -- CPU_ReadMem(4 bytes @ 0xE0001004) -- Not simulated -- CPU_WriteMem(4 bytes @ 0xE0002008)  returns 0x00 (0012ms, 0669ms total)
T2DAC 012:024 JLINK_ReadReg(R15 (PC))  returns 0x0001DBD4 (0000ms, 0669ms total)
T2DAC 012:024 JLINK_ReadReg(XPSR)  returns 0x61000000 (0000ms, 0669ms total)
T2DAC 012:024 JLINK_Step() -- CPU_ReadMem(64 bytes @ 0x0001DBC0) -- Updating C cache (64 bytes @ 0x0001DBC0) -- Read from C cache (2 bytes @ 0x0001DBD4) -- CPU_ReadMem(4 bytes @ 0xE0001004) -- Read from C cache (2 bytes @ 0x0001DBD6) -- Simulated  returns 0x00 (0002ms, 0671ms total)
T2DAC 012:026 JLINK_ReadReg(R15 (PC))  returns 0x0001D134 (0000ms, 0671ms total)
T2DAC 012:026 JLINK_ReadReg(XPSR)  returns 0x61000000 (0000ms, 0671ms total)
T2DAC 012:026 JLINK_ReadReg(R0)  returns 0x4000C500 (0000ms, 0671ms total)
T2DAC 012:026 JLINK_ReadReg(R1)  returns 0x00000000 (0000ms, 0671ms total)
T2DAC 012:026 JLINK_ReadReg(R2)  returns 0x0001EB9D (0000ms, 0671ms total)
T2DAC 012:026 JLINK_ReadReg(R3)  returns 0x00000000 (0000ms, 0671ms total)
T2DAC 012:026 JLINK_ReadReg(R4)  returns 0x00000000 (0000ms, 0671ms total)
T2DAC 012:026 JLINK_ReadReg(R5)  returns 0x00000001 (0000ms, 0671ms total)
T2DAC 012:026 JLINK_ReadReg(R6)  returns 0x0001F0A4 (0000ms, 0671ms total)
T2DAC 012:026 JLINK_ReadReg(R7)  returns 0xFFFFFFFF (0000ms, 0671ms total)
T2DAC 012:026 JLINK_ReadReg(R8)  returns 0xFFFFFFFF (0000ms, 0671ms total)
T2DAC 012:026 JLINK_ReadReg(R9)  returns 0xFFFFFFFF (0000ms, 0671ms total)
T2DAC 012:026 JLINK_ReadReg(R10)  returns 0xFFFFFFFF (0000ms, 0671ms total)
T2DAC 012:026 JLINK_ReadReg(R11)  returns 0xFFFFFFFF (0000ms, 0671ms total)
T2DAC 012:026 JLINK_ReadReg(R12)  returns 0xFFFFFFFF (0000ms, 0671ms total)
T2DAC 012:026 JLINK_ReadReg(R13 (SP))  returns 0x200030E0 (0000ms, 0671ms total)
T2DAC 012:026 JLINK_ReadReg(R14)  returns 0x0001DBD9 (0000ms, 0671ms total)
T2DAC 012:026 JLINK_ReadReg(R15 (PC))  returns 0x0001D134 (0000ms, 0671ms total)
T2DAC 012:026 JLINK_ReadReg(XPSR)  returns 0x61000000 (0000ms, 0671ms total)
T2DAC 012:026 JLINK_ReadReg(MSP)  returns 0x200030E0 (0000ms, 0671ms total)
T2DAC 012:026 JLINK_ReadReg(PSP)  returns 0xFFFFFFFC (0000ms, 0671ms total)
T2DAC 012:026 JLINK_ReadReg(CFBP)  returns 0x00000000 (0000ms, 0671ms total)
T4454 012:026 JLINK_ReadMem (0x00000000, 0x0004 Bytes, ...) -- CPU_ReadMem(64 bytes @ 0x00000000) -- Updating C cache (64 bytes @ 0x00000000) -- Read from C cache (4 bytes @ 0x00000000) - Data: C0 07 00 00  returns 0x00 (0002ms, 0673ms total)
T4454 012:038 JLINK_ReadMem (0x0001D034, 0x003C Bytes, ...) -- CPU_ReadMem(128 bytes @ 0x0001D000) -- Updating C cache (128 bytes @ 0x0001D000) -- Read from C cache (60 bytes @ 0x0001D034) - Data: 01 88 60 68 10 29 0D D0 11 29 0A D1 40 1E 60 60 ...  returns 0x00 (0002ms, 0675ms total)
T4454 012:040 JLINK_ReadMem (0x0001D070, 0x003C Bytes, ...) -- CPU_ReadMem(64 bytes @ 0x0001D080) -- Updating C cache (64 bytes @ 0x0001D080) -- Read from C cache (60 bytes @ 0x0001D070) - Data: 02 21 01 20 00 F0 6E F8 00 28 01 D0 07 28 08 D1 ...  returns 0x00 (0002ms, 0677ms total)
T4454 012:042 JLINK_ReadMem (0x0001D0AC, 0x003C Bytes, ...) -- CPU_ReadMem(64 bytes @ 0x0001D0C0) -- Updating C cache (64 bytes @ 0x0001D0C0) -- Read from C cache (60 bytes @ 0x0001D0AC) - Data: 00 F0 D4 F9 00 28 01 D0 06 28 00 D1 00 20 10 BD ...  returns 0x00 (0001ms, 0678ms total)
T4454 012:043 JLINK_ReadMem (0x0001D0E8, 0x003C Bytes, ...) -- CPU_ReadMem(64 bytes @ 0x0001D100) -- Updating C cache (64 bytes @ 0x0001D100) -- Read from C cache (60 bytes @ 0x0001D0E8) - Data: 00 29 01 D0 20 46 88 47 F8 BD 2C 78 00 2A 0A D0 ...  returns 0x00 (0001ms, 0679ms total)
T4454 012:044 JLINK_ReadMem (0x0001D124, 0x003C Bytes, ...) -- CPU_ReadMem(64 bytes @ 0x0001D140) -- Updating C cache (64 bytes @ 0x0001D140) -- Read from C cache (60 bytes @ 0x0001D124) - Data: 00 78 A0 42 DB D0 F8 BD 84 ED 01 00 EB 20 00 20 ...  returns 0x00 (0002ms, 0681ms total)
T2DAC 013:828 JLINK_Step() -- Read from C cache (2 bytes @ 0x0001D134) -- CPU_WriteMem(8 bytes @ 0x200030D8) -- Simulated  returns 0x00 (0001ms, 0682ms total)
T2DAC 013:829 JLINK_ReadReg(R15 (PC))  returns 0x0001D136 (0000ms, 0682ms total)
T2DAC 013:829 JLINK_ReadReg(XPSR)  returns 0x61000000 (0000ms, 0682ms total)
T2DAC 013:830 JLINK_ReadReg(R0)  returns 0x4000C500 (0000ms, 0683ms total)
T2DAC 013:830 JLINK_ReadReg(R1)  returns 0x00000000 (0000ms, 0683ms total)
T2DAC 013:830 JLINK_ReadReg(R2)  returns 0x0001EB9D (0000ms, 0683ms total)
T2DAC 013:830 JLINK_ReadReg(R3)  returns 0x00000000 (0000ms, 0683ms total)
T2DAC 013:830 JLINK_ReadReg(R4)  returns 0x00000000 (0000ms, 0683ms total)
T2DAC 013:830 JLINK_ReadReg(R5)  returns 0x00000001 (0000ms, 0683ms total)
T2DAC 013:830 JLINK_ReadReg(R6)  returns 0x0001F0A4 (0000ms, 0683ms total)
T2DAC 013:830 JLINK_ReadReg(R7)  returns 0xFFFFFFFF (0000ms, 0683ms total)
T2DAC 013:830 JLINK_ReadReg(R8)  returns 0xFFFFFFFF (0000ms, 0683ms total)
T2DAC 013:830 JLINK_ReadReg(R9)  returns 0xFFFFFFFF (0000ms, 0683ms total)
T2DAC 013:830 JLINK_ReadReg(R10)  returns 0xFFFFFFFF (0000ms, 0683ms total)
T2DAC 013:830 JLINK_ReadReg(R11)  returns 0xFFFFFFFF (0000ms, 0683ms total)
T2DAC 013:830 JLINK_ReadReg(R12)  returns 0xFFFFFFFF (0000ms, 0683ms total)
T2DAC 013:830 JLINK_ReadReg(R13 (SP))  returns 0x200030D8 (0000ms, 0683ms total)
T2DAC 013:830 JLINK_ReadReg(R14)  returns 0x0001DBD9 (0000ms, 0683ms total)
T2DAC 013:830 JLINK_ReadReg(R15 (PC))  returns 0x0001D136 (0000ms, 0683ms total)
T2DAC 013:830 JLINK_ReadReg(XPSR)  returns 0x61000000 (0000ms, 0683ms total)
T2DAC 013:830 JLINK_ReadReg(MSP)  returns 0x200030D8 (0000ms, 0683ms total)
T2DAC 013:830 JLINK_ReadReg(PSP)  returns 0xFFFFFFFC (0000ms, 0683ms total)
T2DAC 013:830 JLINK_ReadReg(CFBP)  returns 0x00000000 (0000ms, 0683ms total)
T4454 013:833 JLINK_ReadMem (0x200030DC, 0x0004 Bytes, ...) -- CPU_ReadMem(64 bytes @ 0x200030C0) -- Updating C cache (64 bytes @ 0x200030C0) -- Read from C cache (4 bytes @ 0x200030DC) - Data: D9 DB 01 00  returns 0x00 (0001ms, 0684ms total)
T4454 013:834 JLINK_ReadMem (0x200030D8, 0x0004 Bytes, ...) -- Read from C cache (4 bytes @ 0x200030D8) - Data: 00 00 00 00  returns 0x00 (0000ms, 0684ms total)
T4454 013:834 JLINK_ReadMem (0x00000000, 0x0004 Bytes, ...) -- Read from C cache (4 bytes @ 0x00000000) - Data: C0 07 00 00  returns 0x00 (0000ms, 0684ms total)
T4454 013:838 JLINK_ReadMem (0x0001D12E, 0x0002 Bytes, ...) -- Read from C cache (2 bytes @ 0x0001D12E) - Data: 01 00  returns 0x00 (0001ms, 0685ms total)
T4454 013:839 JLINK_ReadMem (0x0001D130, 0x003C Bytes, ...) -- Read from C cache (60 bytes @ 0x0001D130) - Data: EB 20 00 20 10 B5 05 4A 05 49 03 20 00 F0 5A F8 ...  returns 0x00 (0000ms, 0685ms total)
T2DAC 014:787 JLINK_Step() -- Read from C cache (2 bytes @ 0x0001D136) -- Read from C cache (4 bytes @ 0x0001D14C) -- Simulated  returns 0x00 (0001ms, 0686ms total)
T2DAC 014:788 JLINK_ReadReg(R15 (PC))  returns 0x0001D138 (0000ms, 0686ms total)
T2DAC 014:788 JLINK_ReadReg(XPSR)  returns 0x61000000 (0000ms, 0686ms total)
T2DAC 014:788 JLINK_Step() -- Read from C cache (2 bytes @ 0x0001D138) -- Read from C cache (4 bytes @ 0x0001D150) -- Simulated  returns 0x00 (0000ms, 0686ms total)
T2DAC 014:788 JLINK_ReadReg(R15 (PC))  returns 0x0001D13A (0000ms, 0686ms total)
T2DAC 014:788 JLINK_ReadReg(XPSR)  returns 0x61000000 (0000ms, 0686ms total)
T2DAC 014:788 JLINK_Step() -- Read from C cache (2 bytes @ 0x0001D13A) -- Simulated  returns 0x00 (0000ms, 0686ms total)
T2DAC 014:788 JLINK_ReadReg(R15 (PC))  returns 0x0001D13C (0000ms, 0686ms total)
T2DAC 014:788 JLINK_ReadReg(XPSR)  returns 0x21000000 (0000ms, 0686ms total)
T2DAC 014:788 JLINK_Step() -- Read from C cache (2 bytes @ 0x0001D13C) -- Read from C cache (2 bytes @ 0x0001D13E) -- Simulated  returns 0x00 (0000ms, 0686ms total)
T2DAC 014:788 JLINK_ReadReg(R15 (PC))  returns 0x0001D1F4 (0000ms, 0686ms total)
T2DAC 014:788 JLINK_ReadReg(XPSR)  returns 0x21000000 (0000ms, 0686ms total)
T2DAC 014:788 JLINK_ReadReg(R0)  returns 0x00000003 (0000ms, 0686ms total)
T2DAC 014:788 JLINK_ReadReg(R1)  returns 0x00000CCD (0000ms, 0686ms total)
T2DAC 014:788 JLINK_ReadReg(R2)  returns 0x0001D18D (0000ms, 0686ms total)
T2DAC 014:788 JLINK_ReadReg(R3)  returns 0x00000000 (0000ms, 0686ms total)
T2DAC 014:788 JLINK_ReadReg(R4)  returns 0x00000000 (0000ms, 0686ms total)
T2DAC 014:788 JLINK_ReadReg(R5)  returns 0x00000001 (0000ms, 0686ms total)
T2DAC 014:788 JLINK_ReadReg(R6)  returns 0x0001F0A4 (0000ms, 0686ms total)
T2DAC 014:788 JLINK_ReadReg(R7)  returns 0xFFFFFFFF (0000ms, 0686ms total)
T2DAC 014:788 JLINK_ReadReg(R8)  returns 0xFFFFFFFF (0000ms, 0686ms total)
T2DAC 014:788 JLINK_ReadReg(R9)  returns 0xFFFFFFFF (0000ms, 0686ms total)
T2DAC 014:788 JLINK_ReadReg(R10)  returns 0xFFFFFFFF (0000ms, 0686ms total)
T2DAC 014:788 JLINK_ReadReg(R11)  returns 0xFFFFFFFF (0000ms, 0686ms total)
T2DAC 014:788 JLINK_ReadReg(R12)  returns 0xFFFFFFFF (0000ms, 0686ms total)
T2DAC 014:788 JLINK_ReadReg(R13 (SP))  returns 0x200030D8 (0000ms, 0686ms total)
T2DAC 014:789 JLINK_ReadReg(R14)  returns 0x0001D141 (0000ms, 0687ms total)
T2DAC 014:789 JLINK_ReadReg(R15 (PC))  returns 0x0001D1F4 (0000ms, 0687ms total)
T2DAC 014:789 JLINK_ReadReg(XPSR)  returns 0x21000000 (0000ms, 0687ms total)
T2DAC 014:789 JLINK_ReadReg(MSP)  returns 0x200030D8 (0000ms, 0687ms total)
T2DAC 014:789 JLINK_ReadReg(PSP)  returns 0xFFFFFFFC (0000ms, 0687ms total)
T2DAC 014:789 JLINK_ReadReg(CFBP)  returns 0x00000000 (0000ms, 0687ms total)
T4454 014:790 JLINK_ReadMem (0x200030DC, 0x0004 Bytes, ...) -- Read from C cache (4 bytes @ 0x200030DC) - Data: D9 DB 01 00  returns 0x00 (0000ms, 0687ms total)
T4454 014:790 JLINK_ReadMem (0x200030D8, 0x0004 Bytes, ...) -- Read from C cache (4 bytes @ 0x200030D8) - Data: 00 00 00 00  returns 0x00 (0000ms, 0687ms total)
T4454 014:790 JLINK_ReadMem (0x00000000, 0x0004 Bytes, ...) -- Read from C cache (4 bytes @ 0x00000000) - Data: C0 07 00 00  returns 0x00 (0000ms, 0687ms total)
T4454 014:800 JLINK_ReadMem (0x0001D1F2, 0x0002 Bytes, ...) -- CPU_ReadMem(64 bytes @ 0x0001D1C0) -- Updating C cache (64 bytes @ 0x0001D1C0) -- Read from C cache (2 bytes @ 0x0001D1F2) - Data: 10 BD  returns 0x00 (0002ms, 0689ms total)
T4454 014:802 JLINK_ReadMem (0x0001D1F4, 0x003C Bytes, ...) -- CPU_ReadMem(64 bytes @ 0x0001D200) -- Updating C cache (64 bytes @ 0x0001D200) -- Read from C cache (60 bytes @ 0x0001D1F4) - Data: 70 B5 0E 46 1F 49 05 46 8E 60 CD 60 00 20 4A 61 ...  returns 0x00 (0001ms, 0690ms total)
T2DAC 016:463 JLINK_Step() -- Read from C cache (2 bytes @ 0x0001D1F4) -- CPU_WriteMem(16 bytes @ 0x200030C8) -- Simulated  returns 0x00 (0002ms, 0692ms total)
T2DAC 016:465 JLINK_ReadReg(R15 (PC))  returns 0x0001D1F6 (0000ms, 0692ms total)
T2DAC 016:465 JLINK_ReadReg(XPSR)  returns 0x21000000 (0000ms, 0692ms total)
T2DAC 016:465 JLINK_Step() -- Read from C cache (2 bytes @ 0x0001D1F6) -- Simulated  returns 0x00 (0000ms, 0692ms total)
T2DAC 016:465 JLINK_ReadReg(R15 (PC))  returns 0x0001D1F8 (0000ms, 0692ms total)
T2DAC 016:465 JLINK_ReadReg(XPSR)  returns 0x21000000 (0000ms, 0692ms total)
T2DAC 016:466 JLINK_ReadReg(R0)  returns 0x00000003 (0000ms, 0692ms total)
T2DAC 016:466 JLINK_ReadReg(R1)  returns 0x00000CCD (0000ms, 0692ms total)
T2DAC 016:466 JLINK_ReadReg(R2)  returns 0x0001D18D (0000ms, 0692ms total)
T2DAC 016:466 JLINK_ReadReg(R3)  returns 0x00000000 (0000ms, 0692ms total)
T2DAC 016:466 JLINK_ReadReg(R4)  returns 0x00000000 (0000ms, 0692ms total)
T2DAC 016:466 JLINK_ReadReg(R5)  returns 0x00000001 (0000ms, 0692ms total)
T2DAC 016:466 JLINK_ReadReg(R6)  returns 0x00000CCD (0000ms, 0692ms total)
T2DAC 016:466 JLINK_ReadReg(R7)  returns 0xFFFFFFFF (0000ms, 0692ms total)
T2DAC 016:466 JLINK_ReadReg(R8)  returns 0xFFFFFFFF (0000ms, 0692ms total)
T2DAC 016:466 JLINK_ReadReg(R9)  returns 0xFFFFFFFF (0000ms, 0692ms total)
T2DAC 016:466 JLINK_ReadReg(R10)  returns 0xFFFFFFFF (0000ms, 0692ms total)
T2DAC 016:466 JLINK_ReadReg(R11)  returns 0xFFFFFFFF (0000ms, 0692ms total)
T2DAC 016:466 JLINK_ReadReg(R12)  returns 0xFFFFFFFF (0000ms, 0692ms total)
T2DAC 016:466 JLINK_ReadReg(R13 (SP))  returns 0x200030C8 (0000ms, 0692ms total)
T2DAC 016:466 JLINK_ReadReg(R14)  returns 0x0001D141 (0000ms, 0692ms total)
T2DAC 016:466 JLINK_ReadReg(R15 (PC))  returns 0x0001D1F8 (0000ms, 0692ms total)
T2DAC 016:466 JLINK_ReadReg(XPSR)  returns 0x21000000 (0000ms, 0692ms total)
T2DAC 016:466 JLINK_ReadReg(MSP)  returns 0x200030C8 (0000ms, 0692ms total)
T2DAC 016:466 JLINK_ReadReg(PSP)  returns 0xFFFFFFFC (0000ms, 0692ms total)
T2DAC 016:466 JLINK_ReadReg(CFBP)  returns 0x00000000 (0000ms, 0692ms total)
T4454 016:468 JLINK_ReadMem (0x200030D4, 0x0004 Bytes, ...) -- CPU_ReadMem(64 bytes @ 0x200030C0) -- Updating C cache (64 bytes @ 0x200030C0) -- Read from C cache (4 bytes @ 0x200030D4) - Data: 41 D1 01 00  returns 0x00 (0002ms, 0694ms total)
T4454 016:470 JLINK_ReadMem (0x200030C8, 0x0004 Bytes, ...) -- Read from C cache (4 bytes @ 0x200030C8) - Data: 00 00 00 00  returns 0x00 (0000ms, 0694ms total)
T4454 016:470 JLINK_ReadMem (0x200030CC, 0x0004 Bytes, ...) -- Read from C cache (4 bytes @ 0x200030CC) - Data: 01 00 00 00  returns 0x00 (0000ms, 0694ms total)
T4454 016:470 JLINK_ReadMem (0x200030D0, 0x0004 Bytes, ...) -- Read from C cache (4 bytes @ 0x200030D0) - Data: A4 F0 01 00  returns 0x00 (0000ms, 0694ms total)
T4454 016:470 JLINK_ReadMem (0x200030DC, 0x0004 Bytes, ...) -- Read from C cache (4 bytes @ 0x200030DC) - Data: D9 DB 01 00  returns 0x00 (0000ms, 0694ms total)
T4454 016:470 JLINK_ReadMem (0x200030D8, 0x0004 Bytes, ...) -- Read from C cache (4 bytes @ 0x200030D8) - Data: 00 00 00 00  returns 0x00 (0000ms, 0694ms total)
T4454 016:470 JLINK_ReadMem (0x00000000, 0x0004 Bytes, ...) -- Read from C cache (4 bytes @ 0x00000000) - Data: C0 07 00 00  returns 0x00 (0000ms, 0694ms total)
T4454 016:474 JLINK_ReadMem (0x0001D1F4, 0x003C Bytes, ...) -- Read from C cache (60 bytes @ 0x0001D1F4) - Data: 70 B5 0E 46 1F 49 05 46 8E 60 CD 60 00 20 4A 61 ...  returns 0x00 (0000ms, 0694ms total)
T2DAC 017:526 JLINK_Step() -- Read from C cache (2 bytes @ 0x0001D1F8) -- CPU_ReadMem(64 bytes @ 0x0001D240) -- Updating C cache (64 bytes @ 0x0001D240) -- Read from C cache (4 bytes @ 0x0001D278) -- Simulated  returns 0x00 (0004ms, 0698ms total)
T2DAC 017:530 JLINK_ReadReg(R15 (PC))  returns 0x0001D1FA (0000ms, 0698ms total)
T2DAC 017:530 JLINK_ReadReg(XPSR)  returns 0x21000000 (0000ms, 0698ms total)
T2DAC 017:530 JLINK_Step() -- Read from C cache (2 bytes @ 0x0001D1FA) -- Simulated  returns 0x00 (0000ms, 0698ms total)
T2DAC 017:530 JLINK_ReadReg(R15 (PC))  returns 0x0001D1FC (0000ms, 0698ms total)
T2DAC 017:530 JLINK_ReadReg(XPSR)  returns 0x21000000 (0000ms, 0698ms total)
T2DAC 017:530 JLINK_ReadReg(R0)  returns 0x00000003 (0000ms, 0698ms total)
T2DAC 017:530 JLINK_ReadReg(R1)  returns 0x200020E8 (0000ms, 0698ms total)
T2DAC 017:530 JLINK_ReadReg(R2)  returns 0x0001D18D (0000ms, 0698ms total)
T2DAC 017:530 JLINK_ReadReg(R3)  returns 0x00000000 (0000ms, 0698ms total)
T2DAC 017:530 JLINK_ReadReg(R4)  returns 0x00000000 (0000ms, 0698ms total)
T2DAC 017:530 JLINK_ReadReg(R5)  returns 0x00000003 (0000ms, 0698ms total)
T2DAC 017:530 JLINK_ReadReg(R6)  returns 0x00000CCD (0000ms, 0698ms total)
T2DAC 017:530 JLINK_ReadReg(R7)  returns 0xFFFFFFFF (0000ms, 0698ms total)
T2DAC 017:530 JLINK_ReadReg(R8)  returns 0xFFFFFFFF (0000ms, 0698ms total)
T2DAC 017:530 JLINK_ReadReg(R9)  returns 0xFFFFFFFF (0000ms, 0698ms total)
T2DAC 017:530 JLINK_ReadReg(R10)  returns 0xFFFFFFFF (0000ms, 0698ms total)
T2DAC 017:530 JLINK_ReadReg(R11)  returns 0xFFFFFFFF (0000ms, 0698ms total)
T2DAC 017:530 JLINK_ReadReg(R12)  returns 0xFFFFFFFF (0000ms, 0698ms total)
T2DAC 017:530 JLINK_ReadReg(R13 (SP))  returns 0x200030C8 (0000ms, 0698ms total)
T2DAC 017:530 JLINK_ReadReg(R14)  returns 0x0001D141 (0000ms, 0698ms total)
T2DAC 017:530 JLINK_ReadReg(R15 (PC))  returns 0x0001D1FC (0000ms, 0698ms total)
T2DAC 017:530 JLINK_ReadReg(XPSR)  returns 0x21000000 (0000ms, 0698ms total)
T2DAC 017:530 JLINK_ReadReg(MSP)  returns 0x200030C8 (0000ms, 0698ms total)
T2DAC 017:530 JLINK_ReadReg(PSP)  returns 0xFFFFFFFC (0000ms, 0698ms total)
T2DAC 017:530 JLINK_ReadReg(CFBP)  returns 0x00000000 (0000ms, 0698ms total)
T4454 017:531 JLINK_ReadMem (0x200030D4, 0x0004 Bytes, ...) -- Read from C cache (4 bytes @ 0x200030D4) - Data: 41 D1 01 00  returns 0x00 (0000ms, 0698ms total)
T4454 017:531 JLINK_ReadMem (0x200030C8, 0x0004 Bytes, ...) -- Read from C cache (4 bytes @ 0x200030C8) - Data: 00 00 00 00  returns 0x00 (0001ms, 0699ms total)
T4454 017:532 JLINK_ReadMem (0x200030CC, 0x0004 Bytes, ...) -- Read from C cache (4 bytes @ 0x200030CC) - Data: 01 00 00 00  returns 0x00 (0000ms, 0699ms total)
T4454 017:532 JLINK_ReadMem (0x200030D0, 0x0004 Bytes, ...) -- Read from C cache (4 bytes @ 0x200030D0) - Data: A4 F0 01 00  returns 0x00 (0000ms, 0699ms total)
T4454 017:532 JLINK_ReadMem (0x200030DC, 0x0004 Bytes, ...) -- Read from C cache (4 bytes @ 0x200030DC) - Data: D9 DB 01 00  returns 0x00 (0000ms, 0699ms total)
T4454 017:532 JLINK_ReadMem (0x200030D8, 0x0004 Bytes, ...) -- Read from C cache (4 bytes @ 0x200030D8) - Data: 00 00 00 00  returns 0x00 (0000ms, 0699ms total)
T4454 017:532 JLINK_ReadMem (0x00000000, 0x0004 Bytes, ...) -- Read from C cache (4 bytes @ 0x00000000) - Data: C0 07 00 00  returns 0x00 (0000ms, 0699ms total)
T4454 017:537 JLINK_ReadMem (0x0001D1FA, 0x0002 Bytes, ...) -- Read from C cache (2 bytes @ 0x0001D1FA) - Data: 05 46  returns 0x00 (0000ms, 0699ms total)
T4454 017:537 JLINK_ReadMem (0x0001D1FC, 0x003C Bytes, ...) -- Read from C cache (60 bytes @ 0x0001D1FC) - Data: 8E 60 CD 60 00 20 4A 61 A9 07 1D D5 00 24 05 E0 ...  returns 0x00 (0000ms, 0699ms total)
T2DAC 023:922 JLINK_Step() -- Read from C cache (2 bytes @ 0x0001D1FC) -- CPU_WriteMem(4 bytes @ 0x200020F0) -- Simulated  returns 0x00 (0002ms, 0701ms total)
T2DAC 023:924 JLINK_ReadReg(R15 (PC))  returns 0x0001D1FE (0000ms, 0701ms total)
T2DAC 023:924 JLINK_ReadReg(XPSR)  returns 0x21000000 (0000ms, 0701ms total)
T2DAC 023:924 JLINK_Step() -- Read from C cache (2 bytes @ 0x0001D1FE) -- CPU_WriteMem(4 bytes @ 0x200020F4) -- Simulated  returns 0x00 (0001ms, 0702ms total)
T2DAC 023:925 JLINK_ReadReg(R15 (PC))  returns 0x0001D200 (0000ms, 0702ms total)
T2DAC 023:925 JLINK_ReadReg(XPSR)  returns 0x21000000 (0000ms, 0702ms total)
T2DAC 023:925 JLINK_ReadReg(R0)  returns 0x00000003 (0000ms, 0702ms total)
T2DAC 023:925 JLINK_ReadReg(R1)  returns 0x200020E8 (0000ms, 0702ms total)
T2DAC 023:925 JLINK_ReadReg(R2)  returns 0x0001D18D (0000ms, 0702ms total)
T2DAC 023:925 JLINK_ReadReg(R3)  returns 0x00000000 (0000ms, 0702ms total)
T2DAC 023:925 JLINK_ReadReg(R4)  returns 0x00000000 (0000ms, 0702ms total)
T2DAC 023:925 JLINK_ReadReg(R5)  returns 0x00000003 (0000ms, 0702ms total)
T2DAC 023:925 JLINK_ReadReg(R6)  returns 0x00000CCD (0000ms, 0702ms total)
T2DAC 023:925 JLINK_ReadReg(R7)  returns 0xFFFFFFFF (0001ms, 0703ms total)
T2DAC 023:926 JLINK_ReadReg(R8)  returns 0xFFFFFFFF (0000ms, 0703ms total)
T2DAC 023:926 JLINK_ReadReg(R9)  returns 0xFFFFFFFF (0000ms, 0703ms total)
T2DAC 023:926 JLINK_ReadReg(R10)  returns 0xFFFFFFFF (0000ms, 0703ms total)
T2DAC 023:926 JLINK_ReadReg(R11)  returns 0xFFFFFFFF (0000ms, 0703ms total)
T2DAC 023:926 JLINK_ReadReg(R12)  returns 0xFFFFFFFF (0000ms, 0703ms total)
T2DAC 023:926 JLINK_ReadReg(R13 (SP))  returns 0x200030C8 (0000ms, 0703ms total)
T2DAC 023:926 JLINK_ReadReg(R14)  returns 0x0001D141 (0000ms, 0703ms total)
T2DAC 023:926 JLINK_ReadReg(R15 (PC))  returns 0x0001D200 (0000ms, 0703ms total)
T2DAC 023:926 JLINK_ReadReg(XPSR)  returns 0x21000000 (0000ms, 0703ms total)
T2DAC 023:926 JLINK_ReadReg(MSP)  returns 0x200030C8 (0000ms, 0703ms total)
T2DAC 023:926 JLINK_ReadReg(PSP)  returns 0xFFFFFFFC (0000ms, 0703ms total)
T2DAC 023:926 JLINK_ReadReg(CFBP)  returns 0x00000000 (0000ms, 0703ms total)
T4454 023:926 JLINK_ReadMem (0x200030D4, 0x0004 Bytes, ...) -- Read from C cache (4 bytes @ 0x200030D4) - Data: 41 D1 01 00  returns 0x00 (0000ms, 0703ms total)
T4454 023:926 JLINK_ReadMem (0x200030C8, 0x0004 Bytes, ...) -- Read from C cache (4 bytes @ 0x200030C8) - Data: 00 00 00 00  returns 0x00 (0000ms, 0703ms total)
T4454 023:926 JLINK_ReadMem (0x200030CC, 0x0004 Bytes, ...) -- Read from C cache (4 bytes @ 0x200030CC) - Data: 01 00 00 00  returns 0x00 (0000ms, 0703ms total)
T4454 023:926 JLINK_ReadMem (0x200030D0, 0x0004 Bytes, ...) -- Read from C cache (4 bytes @ 0x200030D0) - Data: A4 F0 01 00  returns 0x00 (0000ms, 0703ms total)
T4454 023:926 JLINK_ReadMem (0x200030DC, 0x0004 Bytes, ...) -- Read from C cache (4 bytes @ 0x200030DC) - Data: D9 DB 01 00  returns 0x00 (0000ms, 0703ms total)
T4454 023:926 JLINK_ReadMem (0x200030D8, 0x0004 Bytes, ...) -- Read from C cache (4 bytes @ 0x200030D8) - Data: 00 00 00 00  returns 0x00 (0000ms, 0703ms total)
T4454 023:926 JLINK_ReadMem (0x00000000, 0x0004 Bytes, ...) -- Read from C cache (4 bytes @ 0x00000000) - Data: C0 07 00 00  returns 0x00 (0000ms, 0703ms total)
T4454 023:931 JLINK_ReadMem (0x0001D1FC, 0x003C Bytes, ...) -- Read from C cache (60 bytes @ 0x0001D1FC) - Data: 8E 60 CD 60 00 20 4A 61 A9 07 1D D5 00 24 05 E0 ...  returns 0x00 (0000ms, 0703ms total)
T2DAC 024:673 JLINK_Step() -- Read from C cache (2 bytes @ 0x0001D200) -- Simulated  returns 0x00 (0001ms, 0704ms total)
T2DAC 024:674 JLINK_ReadReg(R15 (PC))  returns 0x0001D202 (0000ms, 0704ms total)
T2DAC 024:674 JLINK_ReadReg(XPSR)  returns 0x61000000 (0000ms, 0704ms total)
T2DAC 024:674 JLINK_Step() -- Read from C cache (2 bytes @ 0x0001D202) -- CPU_WriteMem(4 bytes @ 0x200020FC) -- Simulated  returns 0x00 (0001ms, 0705ms total)
T2DAC 024:675 JLINK_ReadReg(R15 (PC))  returns 0x0001D204 (0000ms, 0705ms total)
T2DAC 024:675 JLINK_ReadReg(XPSR)  returns 0x61000000 (0000ms, 0705ms total)
T2DAC 024:675 JLINK_Step() -- Read from C cache (2 bytes @ 0x0001D204) -- Simulated  returns 0x00 (0000ms, 0705ms total)
T2DAC 024:675 JLINK_ReadReg(R15 (PC))  returns 0x0001D206 (0000ms, 0705ms total)
T2DAC 024:675 JLINK_ReadReg(XPSR)  returns 0x81000000 (0000ms, 0705ms total)
T2DAC 024:675 JLINK_Step() -- Read from C cache (2 bytes @ 0x0001D206) -- Simulated  returns 0x00 (0000ms, 0705ms total)
T2DAC 024:675 JLINK_ReadReg(R15 (PC))  returns 0x0001D208 (0000ms, 0705ms total)
T2DAC 024:675 JLINK_ReadReg(XPSR)  returns 0x81000000 (0000ms, 0705ms total)
T2DAC 024:675 JLINK_ReadReg(R0)  returns 0x00000000 (0000ms, 0705ms total)
T2DAC 024:675 JLINK_ReadReg(R1)  returns 0xC0000000 (0000ms, 0705ms total)
T2DAC 024:675 JLINK_ReadReg(R2)  returns 0x0001D18D (0000ms, 0705ms total)
T2DAC 024:675 JLINK_ReadReg(R3)  returns 0x00000000 (0000ms, 0705ms total)
T2DAC 024:675 JLINK_ReadReg(R4)  returns 0x00000000 (0000ms, 0705ms total)
T2DAC 024:675 JLINK_ReadReg(R5)  returns 0x00000003 (0000ms, 0705ms total)
T2DAC 024:675 JLINK_ReadReg(R6)  returns 0x00000CCD (0000ms, 0705ms total)
T2DAC 024:675 JLINK_ReadReg(R7)  returns 0xFFFFFFFF (0000ms, 0705ms total)
T2DAC 024:675 JLINK_ReadReg(R8)  returns 0xFFFFFFFF (0000ms, 0705ms total)
T2DAC 024:675 JLINK_ReadReg(R9)  returns 0xFFFFFFFF (0000ms, 0705ms total)
T2DAC 024:675 JLINK_ReadReg(R10)  returns 0xFFFFFFFF (0000ms, 0705ms total)
T2DAC 024:675 JLINK_ReadReg(R11)  returns 0xFFFFFFFF (0000ms, 0705ms total)
T2DAC 024:675 JLINK_ReadReg(R12)  returns 0xFFFFFFFF (0000ms, 0705ms total)
T2DAC 024:675 JLINK_ReadReg(R13 (SP))  returns 0x200030C8 (0000ms, 0705ms total)
T2DAC 024:675 JLINK_ReadReg(R14)  returns 0x0001D141 (0000ms, 0705ms total)
T2DAC 024:675 JLINK_ReadReg(R15 (PC))  returns 0x0001D208 (0000ms, 0705ms total)
T2DAC 024:675 JLINK_ReadReg(XPSR)  returns 0x81000000 (0000ms, 0705ms total)
T2DAC 024:675 JLINK_ReadReg(MSP)  returns 0x200030C8 (0000ms, 0705ms total)
T2DAC 024:675 JLINK_ReadReg(PSP)  returns 0xFFFFFFFC (0000ms, 0705ms total)
T2DAC 024:675 JLINK_ReadReg(CFBP)  returns 0x00000000 (0000ms, 0705ms total)
T4454 024:676 JLINK_ReadMem (0x200030D4, 0x0004 Bytes, ...) -- Read from C cache (4 bytes @ 0x200030D4) - Data: 41 D1 01 00  returns 0x00 (0000ms, 0705ms total)
T4454 024:676 JLINK_ReadMem (0x200030C8, 0x0004 Bytes, ...) -- Read from C cache (4 bytes @ 0x200030C8) - Data: 00 00 00 00  returns 0x00 (0000ms, 0705ms total)
T4454 024:676 JLINK_ReadMem (0x200030CC, 0x0004 Bytes, ...) -- Read from C cache (4 bytes @ 0x200030CC) - Data: 01 00 00 00  returns 0x00 (0000ms, 0705ms total)
T4454 024:676 JLINK_ReadMem (0x200030D0, 0x0004 Bytes, ...) -- Read from C cache (4 bytes @ 0x200030D0) - Data: A4 F0 01 00  returns 0x00 (0000ms, 0705ms total)
T4454 024:676 JLINK_ReadMem (0x200030DC, 0x0004 Bytes, ...) -- Read from C cache (4 bytes @ 0x200030DC) - Data: D9 DB 01 00  returns 0x00 (0000ms, 0705ms total)
T4454 024:676 JLINK_ReadMem (0x200030D8, 0x0004 Bytes, ...) -- Read from C cache (4 bytes @ 0x200030D8) - Data: 00 00 00 00  returns 0x00 (0000ms, 0705ms total)
T4454 024:676 JLINK_ReadMem (0x00000000, 0x0004 Bytes, ...) -- Read from C cache (4 bytes @ 0x00000000) - Data: C0 07 00 00  returns 0x00 (0000ms, 0705ms total)
T4454 024:679 JLINK_ReadMem (0x0001D206, 0x0002 Bytes, ...) -- Read from C cache (2 bytes @ 0x0001D206) - Data: 1D D5  returns 0x00 (0000ms, 0705ms total)
T4454 024:679 JLINK_ReadMem (0x0001D208, 0x003C Bytes, ...) -- Read from C cache (60 bytes @ 0x0001D208) - Data: 00 24 05 E0 01 22 11 46 20 46 FF F7 9F FF 64 1C ...  returns 0x00 (0000ms, 0705ms total)
T2DAC 025:351 JLINK_Step() -- Read from C cache (2 bytes @ 0x0001D208) -- Simulated  returns 0x00 (0001ms, 0706ms total)
T2DAC 025:352 JLINK_ReadReg(R15 (PC))  returns 0x0001D20A (0000ms, 0706ms total)
T2DAC 025:352 JLINK_ReadReg(XPSR)  returns 0x41000000 (0000ms, 0706ms total)
T2DAC 025:352 JLINK_Step() -- Read from C cache (2 bytes @ 0x0001D20A) -- Simulated  returns 0x00 (0000ms, 0706ms total)
T2DAC 025:352 JLINK_ReadReg(R15 (PC))  returns 0x0001D218 (0000ms, 0706ms total)
T2DAC 025:352 JLINK_ReadReg(XPSR)  returns 0x41000000 (0000ms, 0706ms total)
T2DAC 025:352 JLINK_Step() -- Read from C cache (2 bytes @ 0x0001D218) -- Simulated  returns 0x00 (0001ms, 0707ms total)
T2DAC 025:353 JLINK_ReadReg(R15 (PC))  returns 0x0001D21A (0000ms, 0707ms total)
T2DAC 025:353 JLINK_ReadReg(XPSR)  returns 0x41000000 (0000ms, 0707ms total)
T2DAC 025:353 JLINK_ReadReg(R0)  returns 0x00000000 (0000ms, 0707ms total)
T2DAC 025:353 JLINK_ReadReg(R1)  returns 0x00000000 (0000ms, 0707ms total)
T2DAC 025:353 JLINK_ReadReg(R2)  returns 0x0001D18D (0000ms, 0707ms total)
T2DAC 025:353 JLINK_ReadReg(R3)  returns 0x00000000 (0000ms, 0707ms total)
T2DAC 025:353 JLINK_ReadReg(R4)  returns 0x00000000 (0000ms, 0707ms total)
T2DAC 025:353 JLINK_ReadReg(R5)  returns 0x00000003 (0000ms, 0707ms total)
T2DAC 025:353 JLINK_ReadReg(R6)  returns 0x00000CCD (0000ms, 0707ms total)
T2DAC 025:353 JLINK_ReadReg(R7)  returns 0xFFFFFFFF (0000ms, 0707ms total)
T2DAC 025:353 JLINK_ReadReg(R8)  returns 0xFFFFFFFF (0000ms, 0707ms total)
T2DAC 025:353 JLINK_ReadReg(R9)  returns 0xFFFFFFFF (0000ms, 0707ms total)
T2DAC 025:353 JLINK_ReadReg(R10)  returns 0xFFFFFFFF (0000ms, 0707ms total)
T2DAC 025:353 JLINK_ReadReg(R11)  returns 0xFFFFFFFF (0000ms, 0707ms total)
T2DAC 025:353 JLINK_ReadReg(R12)  returns 0xFFFFFFFF (0000ms, 0707ms total)
T2DAC 025:353 JLINK_ReadReg(R13 (SP))  returns 0x200030C8 (0000ms, 0707ms total)
T2DAC 025:353 JLINK_ReadReg(R14)  returns 0x0001D141 (0000ms, 0707ms total)
T2DAC 025:353 JLINK_ReadReg(R15 (PC))  returns 0x0001D21A (0000ms, 0707ms total)
T2DAC 025:353 JLINK_ReadReg(XPSR)  returns 0x41000000 (0000ms, 0707ms total)
T2DAC 025:353 JLINK_ReadReg(MSP)  returns 0x200030C8 (0000ms, 0707ms total)
T2DAC 025:353 JLINK_ReadReg(PSP)  returns 0xFFFFFFFC (0000ms, 0707ms total)
T2DAC 025:353 JLINK_ReadReg(CFBP)  returns 0x00000000 (0000ms, 0707ms total)
T4454 025:357 JLINK_ReadMem (0x200030D4, 0x0004 Bytes, ...) -- Read from C cache (4 bytes @ 0x200030D4) - Data: 41 D1 01 00  returns 0x00 (0000ms, 0707ms total)
T4454 025:357 JLINK_ReadMem (0x200030C8, 0x0004 Bytes, ...) -- Read from C cache (4 bytes @ 0x200030C8) - Data: 00 00 00 00  returns 0x00 (0000ms, 0707ms total)
T4454 025:357 JLINK_ReadMem (0x200030CC, 0x0004 Bytes, ...) -- Read from C cache (4 bytes @ 0x200030CC) - Data: 01 00 00 00  returns 0x00 (0000ms, 0707ms total)
T4454 025:357 JLINK_ReadMem (0x200030D0, 0x0004 Bytes, ...) -- Read from C cache (4 bytes @ 0x200030D0) - Data: A4 F0 01 00  returns 0x00 (0000ms, 0707ms total)
T4454 025:357 JLINK_ReadMem (0x200030DC, 0x0004 Bytes, ...) -- Read from C cache (4 bytes @ 0x200030DC) - Data: D9 DB 01 00  returns 0x00 (0000ms, 0707ms total)
T4454 025:357 JLINK_ReadMem (0x200030D8, 0x0004 Bytes, ...) -- Read from C cache (4 bytes @ 0x200030D8) - Data: 00 00 00 00  returns 0x00 (0000ms, 0707ms total)
T4454 025:358 JLINK_ReadMem (0x00000000, 0x0004 Bytes, ...) -- Read from C cache (4 bytes @ 0x00000000) - Data: C0 07 00 00  returns 0x00 (0000ms, 0707ms total)
T4454 025:362 JLINK_ReadMem (0x0001D20C, 0x003C Bytes, ...) -- Read from C cache (60 bytes @ 0x0001D20C) - Data: 01 22 11 46 20 46 FF F7 9F FF 64 1C 21 46 01 43 ...  returns 0x00 (0000ms, 0707ms total)
T2DAC 025:774 JLINK_Step() -- Read from C cache (2 bytes @ 0x0001D21A) -- Simulated  returns 0x00 (0000ms, 0707ms total)
T2DAC 025:774 JLINK_ReadReg(R15 (PC))  returns 0x0001D21C (0000ms, 0707ms total)
T2DAC 025:774 JLINK_ReadReg(XPSR)  returns 0x41000000 (0000ms, 0707ms total)
T2DAC 025:774 JLINK_Step() -- Read from C cache (2 bytes @ 0x0001D21C) -- Simulated  returns 0x00 (0000ms, 0707ms total)
T2DAC 025:774 JLINK_ReadReg(R15 (PC))  returns 0x0001D20C (0000ms, 0707ms total)
T2DAC 025:774 JLINK_ReadReg(XPSR)  returns 0x41000000 (0000ms, 0707ms total)
T2DAC 025:774 JLINK_ReadReg(R0)  returns 0x00000000 (0000ms, 0707ms total)
T2DAC 025:774 JLINK_ReadReg(R1)  returns 0x00000000 (0000ms, 0707ms total)
T2DAC 025:774 JLINK_ReadReg(R2)  returns 0x0001D18D (0000ms, 0707ms total)
T2DAC 025:774 JLINK_ReadReg(R3)  returns 0x00000000 (0000ms, 0707ms total)
T2DAC 025:774 JLINK_ReadReg(R4)  returns 0x00000000 (0000ms, 0707ms total)
T2DAC 025:774 JLINK_ReadReg(R5)  returns 0x00000003 (0000ms, 0707ms total)
T2DAC 025:774 JLINK_ReadReg(R6)  returns 0x00000CCD (0000ms, 0707ms total)
T2DAC 025:774 JLINK_ReadReg(R7)  returns 0xFFFFFFFF (0000ms, 0707ms total)
T2DAC 025:774 JLINK_ReadReg(R8)  returns 0xFFFFFFFF (0000ms, 0707ms total)
T2DAC 025:774 JLINK_ReadReg(R9)  returns 0xFFFFFFFF (0000ms, 0707ms total)
T2DAC 025:774 JLINK_ReadReg(R10)  returns 0xFFFFFFFF (0000ms, 0707ms total)
T2DAC 025:774 JLINK_ReadReg(R11)  returns 0xFFFFFFFF (0000ms, 0707ms total)
T2DAC 025:774 JLINK_ReadReg(R12)  returns 0xFFFFFFFF (0000ms, 0707ms total)
T2DAC 025:774 JLINK_ReadReg(R13 (SP))  returns 0x200030C8 (0000ms, 0707ms total)
T2DAC 025:774 JLINK_ReadReg(R14)  returns 0x0001D141 (0000ms, 0707ms total)
T2DAC 025:774 JLINK_ReadReg(R15 (PC))  returns 0x0001D20C (0000ms, 0707ms total)
T2DAC 025:774 JLINK_ReadReg(XPSR)  returns 0x41000000 (0000ms, 0707ms total)
T2DAC 025:774 JLINK_ReadReg(MSP)  returns 0x200030C8 (0000ms, 0707ms total)
T2DAC 025:774 JLINK_ReadReg(PSP)  returns 0xFFFFFFFC (0000ms, 0707ms total)
T2DAC 025:774 JLINK_ReadReg(CFBP)  returns 0x00000000 (0000ms, 0707ms total)
T4454 025:775 JLINK_ReadMem (0x200030D4, 0x0004 Bytes, ...) -- Read from C cache (4 bytes @ 0x200030D4) - Data: 41 D1 01 00  returns 0x00 (0000ms, 0707ms total)
T4454 025:775 JLINK_ReadMem (0x200030C8, 0x0004 Bytes, ...) -- Read from C cache (4 bytes @ 0x200030C8) - Data: 00 00 00 00  returns 0x00 (0000ms, 0707ms total)
T4454 025:775 JLINK_ReadMem (0x200030CC, 0x0004 Bytes, ...) -- Read from C cache (4 bytes @ 0x200030CC) - Data: 01 00 00 00  returns 0x00 (0000ms, 0707ms total)
T4454 025:775 JLINK_ReadMem (0x200030D0, 0x0004 Bytes, ...) -- Read from C cache (4 bytes @ 0x200030D0) - Data: A4 F0 01 00  returns 0x00 (0000ms, 0707ms total)
T4454 025:775 JLINK_ReadMem (0x200030DC, 0x0004 Bytes, ...) -- Read from C cache (4 bytes @ 0x200030DC) - Data: D9 DB 01 00  returns 0x00 (0000ms, 0707ms total)
T4454 025:775 JLINK_ReadMem (0x200030D8, 0x0004 Bytes, ...) -- Read from C cache (4 bytes @ 0x200030D8) - Data: 00 00 00 00  returns 0x00 (0000ms, 0707ms total)
